time	V(n001)	I(L)
0.000000000000000e+000	2.217503e+000	-4.718091e-003
7.324218749999970e-008	2.253022e+000	-4.548712e-003
1.464843749999994e-007	2.287370e+000	-4.377292e-003
2.197265624999991e-007	2.320547e+000	-4.203831e-003
2.929687499999988e-007	2.352552e+000	-4.028330e-003
3.662109374999985e-007	2.383386e+000	-3.850787e-003
4.394531249999982e-007	2.413049e+000	-3.671204e-003
5.126953124999977e-007	2.441541e+000	-3.489580e-003
9.521484374999900e-007	2.584492e+000	-2.365627e-003
1.391601562499982e-006	2.678258e+000	-1.196651e-003
1.684570312499977e-006	2.712523e+000	-4.032841e-004
1.977539062499972e-006	2.723825e+000	3.934980e-004
2.416992187499964e-006	2.697568e+000	1.580326e-003
2.856445312499957e-006	2.619976e+000	2.737084e-003
3.295898437499949e-006	2.492525e+000	3.841757e-003
3.735351562499941e-006	2.317640e+000	4.873324e-003
4.174804687499933e-006	2.098651e+000	5.812154e-003
4.614257812499926e-006	1.839724e+000	6.640381e-003
5.053710937499918e-006	1.545788e+000	7.342243e-003
5.493164062499910e-006	1.222435e+000	7.904384e-003
5.932617187499902e-006	8.758185e-001	8.316107e-003
6.372070312499895e-006	5.125355e-001	8.569576e-003
6.665039062499889e-006	2.644922e-001	8.648127e-003
6.958007812499884e-006	1.420999e-002	8.653471e-003
7.250976562499879e-006	-2.361926e-001	8.585561e-003
7.690429687499871e-006	-6.073895e-001	8.347775e-003
8.129882812499864e-006	-9.670278e-001	7.951130e-003
8.569335937499856e-006	-1.308264e+000	7.403179e-003
9.008789062499848e-006	-1.624604e+000	6.714345e-003
9.448242187499840e-006	-1.910028e+000	5.897739e-003
9.887695312499833e-006	-2.159105e+000	4.968900e-003
1.018066406249983e-005	-2.302591e+000	4.295973e-003
1.062011718749982e-005	-2.480939e+000	3.220262e-003
1.105957031249981e-005	-2.612074e+000	2.083269e-003
1.149902343749980e-005	-2.693502e+000	9.066332e-004
1.179199218749980e-005	-2.719368e+000	1.112235e-004
1.208496093749979e-005	-2.722213e+000	-6.851277e-004
1.252441406249979e-005	-2.683319e+000	-1.866685e-003
1.296386718749978e-005	-2.593362e+000	-3.012720e-003
1.340332031249977e-005	-2.454054e+000	-4.101423e-003
1.384277343749976e-005	-2.268046e+000	-5.112077e-003
1.428222656249976e-005	-2.038877e+000	-6.025449e-003
1.472167968749975e-005	-1.770908e+000	-6.824158e-003
1.516113281249974e-005	-1.469240e+000	-7.493003e-003
1.560058593749973e-005	-1.139612e+000	-8.019259e-003
1.604003906249972e-005	-7.882978e-001	-8.392910e-003
1.647949218749972e-005	-4.219822e-001	-8.606844e-003
1.677246093749971e-005	-1.728725e-001	-8.658598e-003
1.706542968749971e-005	7.770067e-002	-8.637055e-003
1.735839843749970e-005	3.276161e-001	-8.542398e-003
1.779785156249969e-005	6.966339e-001	-8.265245e-003
1.823730468749969e-005	1.052395e+000	-7.830804e-003
1.867675781249968e-005	1.388129e+000	-7.247346e-003
1.911621093749967e-005	1.697448e+000	-6.525971e-003
1.955566406249966e-005	1.974464e+000	-5.680408e-003
1.984863281249966e-005	2.138564e+000	-5.055564e-003
2.014160156249965e-005	2.284561e+000	-4.387924e-003
2.058105468749964e-005	2.466953e+000	-3.318671e-003
2.102050781249964e-005	2.602400e+000	-2.186265e-003
2.145996093749963e-005	2.688323e+000	-1.012254e-003
2.175292968749962e-005	2.717246e+000	-2.174794e-004
2.204589843749962e-005	2.723166e+000	5.791361e-004
2.248535156249965e-005	2.688862e+000	1.762770e-003
2.292480468749968e-005	2.603389e+000	2.912858e-003
2.336425781249972e-005	2.468373e+000	4.007515e-003
2.380371093749975e-005	2.286385e+000	5.025910e-003
2.424316406249978e-005	2.060888e+000	5.948663e-003
2.468261718749982e-005	1.796172e+000	6.758213e-003
2.512207031249985e-005	1.497276e+000	7.439156e-003
2.556152343749988e-005	1.169886e+000	7.978532e-003
2.600097656249992e-005	8.202338e-001	8.366080e-003
2.644042968749995e-005	4.549726e-001	8.594422e-003
2.673339843749997e-005	2.062179e-001	8.655929e-003
2.702636718749999e-005	-4.428262e-002	8.644162e-003
2.731933593750001e-005	-2.944082e-001	8.559221e-003
2.775878906250005e-005	-6.642674e-001	8.296348e-003
2.819824218750008e-005	-1.021486e+000	7.875598e-003
2.863769531250011e-005	-1.359265e+000	7.304976e-003
2.907714843750015e-005	-1.671178e+000	6.595341e-003
2.951660156250018e-005	-1.951289e+000	5.760199e-003
2.980957031250020e-005	-2.117701e+000	5.141469e-003
3.024902343750023e-005	-2.333308e+000	4.133507e-003
3.068847656250027e-005	-2.504512e+000	3.046885e-003
3.112792968750030e-005	-2.628056e+000	1.902281e-003
3.156738281250033e-005	-2.701588e+000	7.214766e-004
3.200683593750037e-005	-2.723710e+000	-4.730570e-004
3.244628906250040e-005	-2.693999e+000	-1.658588e-003
3.288574218750043e-005	-2.613023e+000	-2.812557e-003
3.332519531250046e-005	-2.482321e+000	-3.913003e-003
3.376464843750050e-005	-2.304381e+000	-4.938986e-003
3.420410156250053e-005	-2.082589e+000	-5.870980e-003
3.464355468750056e-005	-1.821166e+000	-6.691251e-003
3.508300781250060e-005	-1.525086e+000	-7.384188e-003
3.552246093750063e-005	-1.199984e+000	-7.936605e-003
3.596191406250066e-005	-8.520463e-001	-8.337990e-003
3.640136718750069e-005	-4.878946e-001	-8.580705e-003
3.669433593750072e-005	-2.395322e-001	-8.651957e-003
3.698730468750074e-005	1.085789e-002	-8.649968e-003
3.728027343750076e-005	2.611561e-001	-8.574755e-003
3.771972656250079e-005	6.318007e-001	-8.326203e-003
3.815917968750083e-005	9.904222e-001	-7.919205e-003
3.859863281250086e-005	1.330196e+000	-7.361506e-003
3.903808593750089e-005	1.644657e+000	-6.663719e-003
3.947753906250092e-005	1.927820e+000	-5.839122e-003
3.977050781250095e-005	2.096519e+000	-5.226599e-003
4.020996093750098e-005	2.315886e+000	-4.226582e-003
4.064941406250101e-005	2.491182e+000	-3.146134e-003
4.108886718750105e-005	2.619071e+000	-2.005815e-003
4.152832031250108e-005	2.697120e+000	-8.273263e-004
4.182128906250110e-005	2.720690e+000	-3.151897e-005
4.211425781250112e-005	2.721228e+000	7.645552e-004
4.255371093750116e-005	2.678896e+000	1.944439e-003
4.299316406250119e-005	2.585586e+000	3.087320e-003
4.343261718750122e-005	2.443072e+000	4.171450e-003
4.387207031250125e-005	2.254066e+000	5.176198e-003
4.431152343750129e-005	2.022167e+000	6.082444e-003
4.475097656250132e-005	1.751785e+000	6.872942e-003
4.519042968750135e-005	1.448068e+000	7.532649e-003
4.562988281250139e-005	1.116794e+000	8.049011e-003
4.606933593750142e-005	7.642676e-001	8.412202e-003
4.650878906250145e-005	3.971973e-001	8.615309e-003
4.680175781250147e-005	1.478460e-001	8.659744e-003
4.709472656250150e-005	-1.027568e-001	8.630872e-003
4.753417968750153e-005	-4.763687e-001	8.450817e-003
4.797363281250156e-005	-8.409154e-001	8.109946e-003
4.841308593750159e-005	-1.189460e+000	7.614743e-003
4.885253906250163e-005	-1.515368e+000	6.974633e-003
4.929199218750166e-005	-1.812440e+000	6.201798e-003
4.973144531250169e-005	-2.075022e+000	5.310942e-003
4.987792968750170e-005	-2.154190e+000	4.991064e-003
4.999999999999998e-005	-2.217505e+000	4.718095e-003
